# Hz S DB R 50
53710000	-0.230912542155389	-107.930599600539	24.9111574773548	57.8536154264603			-49.5568206962622	128.780067562061	-14.3238233767802	-115.19110754589
53810000	-0.31232344017933	-108.361601406526	24.819503262919	57.095736022089			-60.5806115727433	19.777406510478	-14.3421100158613	-114.942126751239
53910000	-0.211616018303132	-108.969898646034	24.9644469207883	57.2593620874126			-53.8386484391897	173.140495154714	-14.3666288751669	-115.78363358502
54010000	-0.224364960628206	-109.214923052542	24.9329530390913	56.7721057772015			-49.2177404320153	-9.99173480342942	-14.5278643229664	-115.857376861252
54110000	-0.214938805218694	-109.515451617858	24.9870074141842	56.4551055687102			-54.5828269234122	122.566031896038	-14.6908198079143	-117.162161338779
54210000	-0.340212306092384	-110.128464920831	24.8997195891752	55.7005815653477			-60.2901955165259	147.684936436388	-14.8644903584563	-117.016882950672
54310000	-0.239048252835259	-111.031457395227	25.0521314816021	55.1040382499086			-52.5881513638327	154.952510645516	-14.8593352629295	-117.210691632418
54410000	-0.276725041837862	-111.78013935436	25.0157670400479	54.4365666154382			-61.4788702603778	78.4595661569279	-14.9682591063098	-117.02482519987
54510000	-0.230640249615608	-112.479440966504	25.1251252424918	53.7908433043662			-52.5672515615741	155.665677839583	-15.0604719786633	-118.413676963339
54610000	-0.306432160473999	-113.122091763014	25.016956927991	53.0313092235556			-55.2523885085609	6.89714376161778	-15.2241996684898	-117.39924608794
54710000	-0.201571698906956	-113.160577311835	25.2076282955387	53.1444870402763			-51.3475339970113	172.561691096596	-15.293339071643	-118.891078343745
54810000	-0.242164054078321	-113.89238030311	25.1406010212887	52.354544256112			-67.0944676451936	25.7474434272658	-15.4424001113792	-118.111587427982
54910000	-0.217553606980459	-114.827201828731	25.1897347584067	51.9972539364889			-60.3107988392097	115.940470065654	-15.4539273753579	-119.122936947148
55010000	-0.316546685804372	-114.760221800499	25.1128152443902	51.398581572151			-51.2083876103342	62.2150951173137	-15.5700326953334	-117.72274404214
55110000	-0.21986355405004	-115.592567057542	25.2641512483722	51.3240277183558			-66.441631167391	-143.147037142827	-15.6942890776395	-119.755841863203
55210000	-0.26950814488845	-116.250341434225	25.1755241689939	50.2705123954365			-52.5801998896434	35.1359457792549	-15.7529246944523	-119.190627193805
55310000	-0.256149373243645	-116.744565445416	25.2736486795642	50.1130047410778			-54.3004383642671	173.733393684431	-15.8472521205575	-121.007935719527
55410000	-0.33803221520689	-117.450499281357	25.2020408438138	49.7115169469994			-71.4600367949989	10.278872444303	-16.1049817777705	-120.271070755987
55510000	-0.234498277970924	-118.263103437962	25.3440454276801	48.9630972915242			-64.8514946763142	-137.662399043839	-16.0499151474941	-121.32639269853
55610000	-0.284796254427087	-118.513541719488	25.3037851261845	48.285276684097			-55.014525844502	84.1503273259909	-16.2225733564908	-119.968894511956
55710000	-0.262453132231916	-119.342024308463	25.3446709131036	48.1037979194293			-71.8741449993701	70.0952554507472	-16.2155684076153	-122.190562518429
55810000	-0.314625565431564	-119.634559124845	25.3400302309388	47.3095128917859			-60.7966205685982	88.6538299709466	-16.4781609471416	-121.446667448999
55910000	-0.240181568623588	-120.612621262782	25.4203344907121	46.9764481311635			-66.2172366651561	-165.809326360398	-16.4786648278349	-122.775494903009
56010000	-0.310030723588242	-121.108047862582	25.3340732815349	45.8761971637116			-53.608226766866	50.2359015093176	-16.6765329440207	-121.20746804469
56110000	-0.284761847021153	-121.72301439857	25.4380003026347	46.0270693262855			-56.3981344056072	148.727637082642	-16.7631716811572	-123.236527895197
56210000	-0.297341151296238	-122.048655413615	25.3923634494401	45.1974799135016			-52.0492960569113	46.0490998575971	-16.9664372940879	-122.987334853147
56310000	-0.224340075481764	-122.926836919637	25.4908005751034	44.8536463943949			-60.8867148172248	114.251636214218	-17.0248313661614	-124.037935960058
56410000	-0.297598946060973	-123.474866681678	25.4633203132789	44.084144746515			-50.0941756721824	40.6071928787609	-17.2014659842488	-122.489544238059
56510000	-0.257390000806254	-124.37640145923	25.5539003647282	43.8245345751378			-51.8441293102154	-139.663375603104	-17.3681473268307	-124.164106173655
56610000	-0.294109524158622	-124.904250399894	25.514168475905	43.0637613166715			-55.1902540468252	29.1737488597925	-17.463554729303	-123.720177389737
56710000	-0.261557194118864	-125.534230863776	25.6212124819423	42.6333783744619			-52.3231688601531	-157.372157055636	-17.4951433129786	-125.418218467563
56810000	-0.348349467821686	-126.422222394531	25.5188245334451	41.7958103514872			-58.5143501625353	38.6504551242807	-17.947343725432	-124.525820055121
56910000	-0.230581050345917	-126.828179401701	25.623976497498	41.7449797919252			-66.4208028311241	84.492854760139	-17.8905545394911	-125.97339057418
57010000	-0.289107190241478	-127.637964100005	25.5640349545202	40.6139579238191			-54.2600835514942	20.293748678967	-18.2110114501791	-124.930626487218
57110000	-0.315224069104564	-127.871096688012	25.6678655728368	40.9168534448548			-59.0318660459251	-167.14615344507	-18.137245712169	-126.922404185301
57210000	-0.333878074276353	-128.640651058887	25.594476268445	39.82609956583			-54.1430380892547	14.657180526845	-18.4156892953858	-126.404400821393
57310000	-0.244055744504095	-129.19221775118	25.6898458261119	39.267741832262			-56.3619032768317	42.5898002800284	-18.4049484101967	-126.019929543754
57410000	-0.357452250574501	-129.889797427188	25.6720095284666	38.6197193752019			-52.9464700087204	43.2955041736555	-18.7302905914689	-126.169263877778
57510000	-0.277609423977934	-130.542149423402	25.7573573409869	38.4987480057437			-56.5670051791483	176.319991597623	-19.0552588769448	-128.304992111577
57610000	-0.355615692950096	-131.540562143731	25.7160794711124	37.2346039595001			-64.7019379564536	146.309731643623	-19.2827633230473	-127.154994720227
57710000	-0.344115374668079	-132.058833594269	25.7584246676166	37.6313970899555			-60.8359330298912	-81.1058292156541	-19.3126903265817	-130.43005477418
57810000	-0.299991638727894	-132.735988852336	25.795715969186	36.5851607546232			-69.6846291460587	-76.0303644309974	-19.6744347526645	-128.235623562409
57910000	-0.287396962288176	-133.482896363546	25.8427169458954	36.0448076194429			-67.487191406038	53.7551388589385	-19.5861426080666	-130.019445615438
58010000	-0.365786840594866	-134.289452138224	25.7560859941886	35.1091197016144			-53.5953970289839	31.8865687547602	-19.8559208272875	-129.581280100478
58110000	-0.341350570273406	-134.820759541298	25.8436711758193	34.9684805448282			-65.1403437270665	102.893549642115	-19.8937897862412	-130.667609395566
58210000	-0.361882393025639	-135.677686358681	25.81684014224	33.9898755838026			-49.7161265640292	50.1100756337871	-20.184845887868	-129.061308473347
58310000	-0.350330449930597	-136.060479245601	25.9038981534206	33.8681628805693			-55.6591259074341	159.709853995622	-20.5134051845482	-132.898658382668
58410000	-0.324374445004219	-136.930166061604	25.9448144196803	32.6912411818447			-50.8740762734929	37.2448921629464	-20.3474899450072	-131.635005212739
58510000	-0.240855859195664	-137.420372790032	25.9894833697969	32.9953215037283			-60.5316205943938	0.781741297046076	-20.8157462917732	-132.652452887365
58610000	-0.342038677166033	-138.557280431239	25.8794692005558	31.6947029854609			-58.2185419144475	38.1690703602435	-21.103441346728	-131.486071632736
58710000	-0.336371070695818	-139.006830144326	25.9819994394685	31.5624048309333			-62.9619647303398	-138.792166913356	-21.1898466357395	-134.312786481086
58810000	-0.340243564311092	-139.84965950182	25.9757957280421	30.639557458211			-56.8896464247874	15.6543501778748	-21.5352921757189	-134.69839263223
58910000	-0.340909432511484	-140.457713989281	25.9735998626142	30.4312510200826			-67.1807657236648	31.2345392352283	-21.7868821474344	-134.91305466946
59010000	-0.351168367461576	-141.27465130099	26.0106933265143	29.3164332766599			-52.3419871360418	19.5713100169298	-22.2580855850054	-135.365761136774
59110000	-0.326169929151702	-141.978334045892	26.0135061049868	29.2868137857672			-56.4608010460624	-138.746191103613	-22.1836187794663	-137.566031038853
59210000	-0.381598340730249	-142.774966743732	26.0438907155755	28.22262640444			-52.9036713156215	69.6751095901395	-22.6449991977437	-135.6748421452
59310000	-0.344280731906155	-143.098885651662	26.1045511992075	28.2820602006311			-56.918540502007	-160.815828071125	-22.7919386838152	-137.109744997865
59410000	-0.387143596274471	-143.885689591674	26.0542836333298	27.2762855205637			-50.6755649012841	35.8248527475078	-23.1451301928837	-139.273693901787
59510000	-0.323081489285457	-144.931124721386	26.1682632186465	26.6688214686885			-53.952147568427	168.233784698823	-23.5894895885149	-138.859645585412
59610000	-0.370110857212078	-145.789058520024	26.0923947986125	25.6288884459613			-59.4123549003065	50.8434275370719	-24.1315896680819	-138.878370049924
59710000	-0.368964394642949	-145.905614540099	26.1520820615502	25.5725794684471			-58.5554598643804	-176.65083758521	-23.9747239711849	-142.227897067373
59810000	-0.365065794682297	-146.864702838294	26.1224849561977	24.8740830440632			-51.1139456701003	11.4890038373035	-24.1276931596476	-141.176446047735
59910000	-0.357509724951897	-147.911262418846	26.1964750539721	24.3779719233964			-70.08590032849	-73.2484284775852	-24.5080550658233	-144.030546112174
60010000	-0.404607827369095	-148.563675993726	26.1349284325895	23.3345248659005			-54.2323221032832	68.7772283944711	-25.3831071963037	-145.209666244629
60110000	-0.325885267174379	-149.271301593484	26.2825054454687	23.0930438296624			-55.3524830120866	123.823090379237	-25.3416343568718	-142.024544603379
60210000	-0.390707175920262	-150.121698125316	26.1420773533484	22.3143877347352			-58.6376028127296	12.229897487385	-26.0098211814038	-146.849380917809
60310000	-0.362900194247707	-150.470850366889	26.2366027308401	22.2211815840434			-58.1749709369466	135.554713701318	-26.1755470434087	-149.215706496143
60410000	-0.413816806207662	-151.555399227032	26.1810762879726	21.2815536694547			-52.3640684277436	10.9298396956984	-26.8923489579568	-147.803635638351
60510000	-0.37716929380392	-152.738315906326	26.2906245986664	20.4983639360064			-56.5194180897775	158.330337126645	-27.2902879413509	-152.616683843802
60610000	-0.46188498591589	-153.147443901752	26.1855600792946	19.8460207432128			-51.7936997355039	74.8304705317865	-28.2062940564706	-148.907882240257
60710000	-0.340767727147131	-153.894729238809	26.3512248063742	19.4790430911041			-58.0838449294375	121.10448788851	-27.5862697504271	-154.213964719173
60810000	-0.426602229999883	-155.023838615975	26.2524646178705	18.3110270041275			-56.1911351094949	79.5879170461676	-28.7257486056517	-154.104001650798
60910000	-0.382801921032186	-155.743126025748	26.3197254762172	18.2870769751319			-55.7471113704013	-127.042037581846	-28.6824779567493	-155.708997972432
61010000	-0.42485201730855	-156.159831452659	26.2847041605779	17.2548523152476			-50.9962457850888	39.9945450842448	-29.4291695939271	-158.968133613205
61110000	-0.379119253855792	-157.116188819233	26.3780286365449	17.0910175900901			-58.9992049635136	59.743456934797	-29.6932093693798	-160.566907401351
61210000	-0.394550115708267	-157.674809458879	26.338173358563	16.340029976531			-55.5861051146553	43.8567890495066	-31.0192318129346	-166.916268660663
61310000	-0.393025333677815	-158.485285602889	26.4195938855729	15.9226831333582			-55.3249357690548	-137.385172511777	-31.2089729466823	-167.726978009846
61410000	-0.395786502821852	-159.639023790116	26.3640651720644	14.3653179061932			-52.1141297203939	49.0564129517274	-32.6426329026919	-173.609516578063
61510000	-0.382736747569408	-160.115128399685	26.4033071819066	14.6270724185021			-58.378244667211	27.9845418754906	-32.7261902040733	-176.351471340227
61610000	-0.435165196834205	-161.09041501955	26.3611761511322	13.4400410165553			-49.4870223725279	97.2228846072651	-34.46044704527	170.264217648479
61710000	-0.36549581028235	-161.956910267245	26.4163818849467	13.4337660781167			-60.8365607283547	-5.1912895285919	-32.7833532338578	172.505730426398
61810000	-0.404565136488361	-162.48516133435	26.3971674471966	12.1814817664208			-48.637413649677	53.4925148514838	-34.9711396966606	171.135121032298
61910000	-0.395921901208583	-163.557673430792	26.451629262609	11.8773187339132			-55.6018655966831	-172.475871791908	-35.1490311441632	158.369574241414
62010000	-0.419531860702598	-164.349393013385	26.4507265133035	10.9952111272738			-51.0786898009781	49.3998624269117	-34.6109898679364	140.998498705448
62110000	-0.396612734664253	-165.218085642861	26.4853567550462	10.5513462343279			-62.2586735253652	91.5542918452651	-35.2389487968472	137.053977545952
62210000	-0.45276765369944	-166.10531932631	26.437374043534	9.30128505220997			-55.1127282660068	64.236292640868	-34.2884319750329	117.199425324179
62310000	-0.390338579604411	-166.812810389005	26.5222543512182	9.19399064330864			-56.4142091771015	0.646671135567726	-34.3922015639489	134.247400021094
62410000	-0.427969391145026	-167.587457934971	26.4744443464018	8.39788142155227			-59.2386267886102	29.5904758466159	-33.8819839740703	108.747815448303
62510000	-0.39697803779547	-168.680530875529	26.5063033917704	8.16633057659403			-93.665176135739	129.228063081214	-33.1903592095731	113.794084612082
62610000	-0.499299304569681	-169.18969617624	26.4081088968664	7.13108964638957			-49.6122692275289	79.9008420713647	-33.1932224614707	96.4181684601818
62710000	-0.415164384387462	-170.225739171906	26.4935143947642	7.1219212765573			-62.754340760331	123.496189755738	-32.700981212821	96.979627177492
62810000	-0.471224692956477	-170.813542184951	26.4380982201369	5.8256676868225			-51.6451637591019	55.7741037132751	-30.579469311357	92.2711978914021
62910000	-0.381075610589072	-171.90428598676	26.573196516722	5.57473485042006			-57.160934531481	56.1678596826631	-31.3569655938419	91.4901321487279
63010000	-0.476748823274577	-172.766632966082	26.4953626976688	4.43699273359667			-51.5215989641575	63.9259757586298	-29.8030242491404	76.9640220997788
63110000	-0.433670516097646	-173.619181692352	26.5261612680282	4.33291496145105			-62.4828172428128	-162.807067303744	-30.5308611311073	79.6772828626062
63210000	-0.471583621521955	-174.428142138396	26.4879677856196	3.128125613356			-55.7135711735836	4.29093581486778	-28.799325154506	75.6541268121806
63310000	-0.396686457851632	-175.401713055559	26.5805568159592	2.89529566930491			-53.3793896135174	50.4696365488315	-29.1503368446119	75.5486515861681
63410000	-0.496836775517587	-176.301277513673	26.4822439523992	1.68931131334333			-54.0971431892671	49.8222392903763	-28.0250674787225	73.9621209589743
63510000	-0.473482119505244	-177.146162089657	26.5718122791116	1.32104460687077			-60.7713648677651	-97.9751269517131	-27.1450020183693	73.0281238022918
63610000	-0.534467061792172	-178.173256141311	26.4944256022643	0.30235397253947			-53.2222908935135	38.0840548082545	-26.5091418892053	70.6046593923579
63710000	-0.426742536773415	-179.06892029936	26.5944688230458	-0.130044508065404			-73.8215894372494	-20.0232635122474	-26.8612186540866	70.3902854526558
63810000	-0.449859794092433	-179.942113216182	26.5666826327495	-1.16883594013348			-53.5758662589843	50.3072542450776	-26.098343181506	63.8408557125238
63910000	-0.450668904495704	179.315413647707	26.5899540563127	-1.11061600726474			-58.3230835153646	-49.8155085108341	-25.6410128083873	66.7674760840464
64010000	-0.464567708697598	178.302998304118	26.5227454767368	-2.52314037477798			-48.7883974115843	17.7279661594418	-25.0108451807664	64.5756875959657
64110000	-0.41897846564941	177.473666339218	26.6486714666093	-2.73345068213347			-69.5016998872253	143.51793951458	-25.090840214988	59.6576278438116
64210000	-0.50138594703824	176.663507758003	26.5275427449592	-3.73393226131455			-50.3616199883311	69.6687426492817	-24.3977306946132	60.0664604529081
64310000	-0.396737278301819	175.393708066223	26.6258313804311	-4.09713412067911			-56.3140018039325	40.7047439921784	-24.4966540449886	61.7881536182368
64410000	-0.472342620046029	174.836537904564	26.5921992459248	-5.29639600009655			-50.8646688104092	93.691085087727	-23.4898605515476	58.2785753897192
64510000	-0.449150243165094	173.707033967275	26.6032573997284	-5.51565183369529			-59.3497092821663	-51.8144859157327	-23.4973340149358	59.9962330300687
64610000	-0.453525241258601	172.818394020889	26.5331766086861	-6.73817066490779			-51.9242353127822	33.8299953150575	-23.0297677990957	57.3289517643221
64710000	-0.447518043941457	171.830664786183	26.6108152118292	-6.95358228279494			-70.7836508894782	-152.102597911858	-22.7879166169037	57.00578029896
64810000	-0.512078926283557	171.217640040282	26.5498619708842	-7.60817346515535			-55.5308799079226	105.285829714359	-22.203078176159	54.5946937879187
64910000	-0.454258046024782	170.194164798818	26.5663247712873	-8.27037300544032			-59.9087370870328	-101.82804737318	-22.0223022981026	54.995237789629
65010000	-0.484774798440314	169.437555903699	26.5556498436951	-8.73523758657749			-51.8660570430529	58.7123430340679	-21.4916188617308	54.4413828813233
65110000	-0.455011489237616	168.391571001133	26.6155105758902	-9.37698428246667			-67.1234068375832	43.1462644575383	-21.5874219231045	52.6277382111889
65210000	-0.533527733746006	167.353306866394	26.497481735114	-10.7982354612005			-56.6648548496692	20.2735095845182	-20.758065017072	53.2421022261508
65310000	-0.452882756889763	166.888312191883	26.5910997113124	-10.9589613833238			-76.6637570513906	-46.7368242552546	-20.8040686523085	51.6239518129633
65410000	-0.532352986445026	165.725125871345	26.5274854782034	-11.9610249289087			-53.8382520148662	61.2716291894452	-20.4226267833553	51.7269061224542
65510000	-0.440455091868224	164.543230923033	26.6222885513463	-12.5568854202448			-69.0512550494468	-65.649558647011	-20.4602306718257	52.3052621500874
65610000	-0.512853737321696	163.784200921483	26.5028587508756	-13.4255941615115			-55.0855989630518	32.4613365332243	-20.0549589624535	51.8890799087594
65710000	-0.440153195909194	163.241692165708	26.6098613335226	-13.4256414651681			-70.6437626621543	-118.117641101632	-19.952313165332	50.5413960907372
65810000	-0.517750336841321	161.896666404285	26.5102867994923	-15.0077754382118			-54.6060510478608	44.5810283582758	-19.4060774645009	49.201801298602
65910000	-0.471310474842544	161.089962198872	26.5574858955082	-15.1798263722178			-62.7159948122924	-111.354275095779	-19.3110169762326	49.3351899378223
66010000	-0.51398579445307	159.892418276509	26.5001119715489	-16.4048927437342			-52.627876248273	37.1741165672539	-19.1196129123269	48.7301514995062
66110000	-0.50389049600797	159.122352863829	26.5541081173525	-16.6030913416102			-57.3860110268608	-65.2103153279559	-19.0116857220242	50.6059487396407
66210000	-0.52598763821647	158.524969670105	26.4618506634279	-17.5459396783553			-52.2442401991649	39.77116412239	-18.6940199844812	46.4313148820511
66310000	-0.419659408472747	157.278795256037	26.5560313681471	-17.7536497999091			-56.9778949215443	-32.1989439861368	-18.5345198333965	47.5932274851561
66410000	-0.49330197115867	156.341066942226	26.4394244142944	-19.0623134131149			-52.1771457745036	40.2232043907305	-18.0787811870216	46.0619169179988
66510000	-0.47200133028355	155.416940594686	26.5276534191003	-19.3060332764089			-55.8305432092652	-51.6524076755306	-18.0640574751511	46.6159395975102
66610000	-0.539338059779364	154.661324429134	26.4348554512818	-20.4492227416087			-49.6319158657341	51.7181256661497	-17.8372060106865	45.8608991108434
